hour, t(sec), P1 (kW), Q1 (kvar), P2 (kW), Q2 (kvar), P3 (kW), Q3 (kvar)
1, 0.00000, -11.8524, -3.2054, -11.2273, -4.53548, -10.3865, -3.33579
2, 0.00000, -9.30291, -2.14211, -8.7079, -3.82963, -7.54417, -2.47346
3, 0.00000, -8.07752, -1.81374, -7.61299, -3.34303, -6.52126, -2.1785
4, 0.00000, -7.50213, -1.77142, -7.15337, -3.02699, -6.24134, -2.10054
5, 0.00000, -6.99576, -1.5498, -6.62864, -2.90039, -5.64336, -1.90898
6, 0.00000, -7.36113, -1.61646, -6.86473, -3.08419, -5.84216, -1.92384
7, 0.00000, -7.38363, -1.66801, -7.0571, -3.02685, -6.04454, -2.06774
8, 0.00000, -6.759, -1.12857, -6.49195, -3.03414, -4.97613, -1.85229
9, 0.00000, -8.56531, -1.60145, -7.83277, -3.81431, -6.28518, -2.07667
10, 0.00000, -10.0705, -1.22078, -9.06091, -4.96939, -6.32272, -2.22504
11, 0.00000, -12.3685, -1.99572, -12.7137, -5.44992, -9.55112, -4.0223
12, 0.00000, -13.901, -2.83708, -13.9919, -5.78634, -11.3896, -4.3954
13, 0.00000, -15.5503, -3.8658, -13.8001, -6.39151, -12.4874, -3.6159
14, 0.00000, -14.0513, -3.70301, -13.0791, -5.5024, -12.0071, -3.76375
15, 0.00000, -13.6337, -3.49934, -13.246, -5.28874, -11.8925, -4.05877
16, 0.00000, -13.3631, -3.44609, -13.4875, -5.06654, -12.0248, -4.36853
17, 0.00000, -12.2924, -2.35521, -11.3319, -5.42871, -9.15289, -3.0653
18, 0.00000, -12.975, -3.32603, -12.263, -5.10168, -11.0845, -3.60107
19, 0.00000, -13.3611, -3.23801, -13.2473, -5.25363, -11.5612, -4.15362
20, 0.00000, -13.5623, -3.97946, -12.9551, -4.9674, -12.405, -3.94955
21, 0.00000, -14.9564, -3.42706, -15.5718, -5.87297, -13.1467, -5.18571
22, 0.00000, -17.4459, -4.1178, -16.5458, -7.11006, -14.4086, -4.84125
23, 0.00000, -15.5123, -3.73889, -15.5441, -6.08886, -13.4922, -4.95017
24, 0.00000, -12.606, -2.65853, -12.7937, -5.16265, -10.5318, -4.07857
25, 0.00000, -11.1012, -2.75461, -10.5432, -4.41058, -9.38991, -3.10187
26, 0.00000, -8.89172, -1.85076, -9.12613, -3.62866, -7.47161, -2.94386
27, 0.00000, -7.37065, -1.62277, -7.50934, -2.95563, -6.28768, -2.41027
28, 0.00000, -6.87777, -1.47651, -6.97619, -2.78851, -5.79332, -2.21973
29, 0.00000, -6.88771, -1.53436, -6.73785, -2.80617, -5.71346, -2.04213
30, 0.00000, -7.00795, -1.62284, -6.57907, -2.87028, -5.71409, -1.87705
31, 0.00000, -7.86456, -1.56152, -7.33907, -3.40915, -6.00336, -2.03177
32, 0.00000, -8.61135, -1.63846, -8.65658, -3.65484, -6.88942, -2.68808
33, 0.00000, -11.909, -2.91295, -10.7604, -4.87519, -9.63741, -2.90348
34, 0.00000, -11.3856, -3.05253, -10.6708, -4.40055, -9.86478, -3.10902
35, 0.00000, -12.7495, -3.53412, -11.2568, -4.99794, -10.7395, -2.97181
36, 0.00000, -14.7543, -3.18344, -13.751, -6.25776, -11.5949, -3.85148
37, 0.00000, -15.2527, -3.37143, -15.5621, -6.14073, -13.0083, -5.02412
38, 0.00000, -14.6079, -4.60018, -13.6364, -5.20748, -13.5953, -4.06391
39, 0.00000, -15.9392, -3.59109, -14.9246, -6.64888, -12.7834, -4.23935
40, 0.00000, -12.7527, -2.3795, -12.2809, -5.57201, -9.75032, -3.56764
41, 0.00000, -11.6267, -2.61387, -12.6817, -4.46908, -10.5449, -4.45649
42, 0.00000, -12.2883, -2.86568, -12.3974, -4.86309, -10.6106, -3.95823
43, 0.00000, -13.1336, -2.72268, -13.395, -5.4018, -10.9421, -4.28895
44, 0.00000, -13.7251, -2.41178, -13.5706, -6.02644, -10.5141, -4.09078
45, 0.00000, -13.8398, -3.25353, -15.7166, -5.10722, -13.1683, -5.80733
46, 0.00000, -17.2763, -3.66894, -19.075, -6.77164, -15.4865, -6.78336
47, 0.00000, -16.8147, -3.43952, -16.8908, -7.01484, -13.7575, -5.30202
48, 0.00000, -14.0484, -3.48582, -14.5655, -5.34238, -12.7002, -4.86759
49, 0.00000, -10.8486, -2.4414, -10.3418, -4.46983, -8.83879, -3.02167
50, 0.00000, -8.07189, -1.69533, -7.58366, -3.42532, -6.3295, -2.13974
51, 0.00000, -7.37474, -1.45966, -7.07503, -3.15832, -5.75456, -2.05187
52, 0.00000, -7.16809, -1.45835, -6.6602, -3.08689, -5.50456, -1.83586
53, 0.00000, -6.74066, -1.41559, -6.59561, -2.80361, -5.46731, -1.98619
54, 0.00000, -7.02202, -1.54609, -6.68064, -2.91133, -5.66963, -1.93639
55, 0.00000, -7.99901, -1.49203, -7.34731, -3.55603, -5.88716, -1.96339
56, 0.00000, -8.73093, -1.54953, -8.22107, -3.8959, -6.44566, -2.28445
57, 0.00000, -13.0287, -2.17269, -12.4209, -5.89301, -9.50587, -3.51103
58, 0.00000, -13.2985, -2.43513, -12.6248, -5.88006, -9.97836, -3.57678
59, 0.00000, -12.357, -2.34669, -11.4192, -5.46899, -9.18538, -3.09557
60, 0.00000, -12.615, -2.34191, -13.4033, -5.26417, -10.4807, -4.48407
61, 0.00000, -14.0096, -3.40727, -13.2924, -5.63098, -11.7279, -3.8957
62, 0.00000, -14.4859, -3.60768, -15.8315, -5.33896, -13.6588, -5.6395
63, 0.00000, -14.5334, -3.53641, -14.1326, -5.76823, -12.3994, -4.3083
64, 0.00000, -12.1671, -2.35399, -11.6019, -5.28042, -9.34918, -3.32839
65, 0.00000, -10.4359, -2.02233, -9.77374, -4.55817, -7.90757, -2.71725
66, 0.00000, -10.8968, -2.52761, -10.0472, -4.51108, -8.75222, -2.78364
67, 0.00000, -10.6052, -1.94998, -10.0097, -4.68772, -7.93622, -2.80498
68, 0.00000, -11.593, -2.24127, -11.0366, -5.03295, -8.89726, -3.15857
69, 0.00000, -15.4223, -2.38251, -15.1264, -7.02553, -11.2518, -4.45498
70, 0.00000, -17.799, -3.25547, -18.5313, -7.55799, -14.4358, -6.05131
71, 0.00000, -17.2368, -3.89929, -16.9283, -7.01889, -14.3795, -5.20064
72, 0.00000, -13.7946, -2.96431, -14.2914, -5.54992, -11.8108, -4.70939
73, 0.00000, -9.49953, -2.07059, -9.61429, -3.84121, -8.02435, -3.05931
74, 0.00000, -8.80275, -1.83467, -8.33229, -3.73448, -6.92348, -2.37936
75, 0.00000, -7.70367, -1.6374, -7.62347, -3.17566, -6.33319, -2.33923
76, 0.00000, -7.20138, -1.74857, -6.99699, -2.84576, -6.15016, -2.12269
77, 0.00000, -7.04092, -1.69787, -6.67503, -2.82472, -5.88429, -1.94654
78, 0.00000, -7.55188, -1.84922, -6.99133, -3.04638, -6.23647, -1.96456
79, 0.00000, -8.43728, -1.64672, -7.79367, -3.69471, -6.34349, -2.11478
80, 0.00000, -9.60924, -1.67522, -9.08501, -4.30377, -7.07275, -2.53782
81, 0.00000, -10.626, -2.09187, -10.3014, -4.54833, -8.3386, -3.03946
82, 0.00000, -10.0998, -1.89877, -9.80683, -4.37802, -7.8095, -2.8873
83, 0.00000, -12.9267, -2.30124, -14.0961, -5.38594, -10.8421, -4.85866
84, 0.00000, -12.1716, -3.04509, -12.556, -4.62034, -11.0023, -4.16604
85, 0.00000, -12.943, -2.81355, -13.2652, -5.22217, -11.0183, -4.29606
86, 0.00000, -18.1947, -4.00424, -19.1637, -7.23296, -15.8806, -6.45611
87, 0.00000, -15.6091, -1.65558, -15.5001, -7.59025, -10.4152, -4.52898
88, 0.00000, -14.3714, -2.26672, -14.0421, -6.5277, -10.5173, -4.11014
89, 0.00000, -15.3308, -2.76657, -14.6893, -6.78805, -11.5295, -4.22318
90, 0.00000, -12.8634, -2.8859, -12.5429, -5.26003, -10.6473, -3.79422
91, 0.00000, -11.8954, -2.77162, -10.4709, -5.02266, -9.23558, -2.6628
92, 0.00000, -10.1517, -2.17128, -9.34586, -4.32753, -7.88185, -2.55327
93, 0.00000, -12.3403, -2.40039, -11.5339, -5.39422, -9.34621, -3.20221
94, 0.00000, -15.9935, -3.05268, -16.4171, -6.74757, -13.0075, -5.27088
95, 0.00000, -17.4731, -4.61942, -16.5982, -6.7808, -15.1655, -4.94856
96, 0.00000, -15.0682, -4.1666, -14.5716, -5.65997, -13.5087, -4.48223
97, 0.00000, -14.5473, -3.63477, -13.8097, -5.77714, -12.3241, -4.07262
98, 0.00000, -11.9548, -3.18599, -11.9741, -4.47611, -10.8505, -3.8516
99, 0.00000, -8.90722, -2.2247, -8.64607, -3.48517, -7.68787, -2.63043
100, 0.00000, -7.7603, -1.7572, -7.56417, -3.14985, -6.45869, -2.28582
101, 0.00000, -7.21786, -1.75956, -6.99338, -2.85268, -6.16092, -2.11259
102, 0.00000, -7.35956, -1.68273, -7.12044, -2.986, -6.11212, -2.1292
103, 0.00000, -7.37129, -1.75655, -7.06706, -2.95635, -6.18129, -2.0941
104, 0.00000, -8.18468, -1.56345, -7.2235, -3.67593, -5.87678, -1.78917
105, 0.00000, -8.85164, -1.63406, -8.40157, -3.89368, -6.67187, -2.3769
106, 0.00000, -10.1433, -1.52842, -9.3808, -4.75042, -6.97165, -2.48125
107, 0.00000, -11.204, -2.4965, -11.6633, -4.43517, -9.75859, -3.86464
108, 0.00000, -14.9197, -2.67785, -14.166, -6.63877, -11.1193, -4.0119
109, 0.00000, -15.4314, -5.31542, -13.3771, -5.40554, -14.3309, -3.58593
110, 0.00000, -13.4292, -3.882, -13.1244, -4.8989, -12.4012, -4.12622
111, 0.00000, -15.0161, -3.51982, -14.6925, -6.03542, -12.6782, -4.50002
112, 0.00000, -13.3447, -2.93235, -13.412, -5.41632, -11.2287, -4.23611
113, 0.00000, -12.0947, -2.94539, -12.0135, -4.73717, -10.5016, -3.77525
114, 0.00000, -12.2656, -2.79399, -12.6349, -4.84374, -10.6744, -4.14214
115, 0.00000, -10.6414, -2.37581, -10.5263, -4.31991, -8.89808, -3.24887
116, 0.00000, -13.4493, -3.02288, -11.8976, -5.74559, -10.3143, -3.04214
117, 0.00000, -15.9776, -4.12876, -13.6501, -6.57052, -12.6999, -3.33757
118, 0.00000, -18.2364, -4.84694, -17.2312, -7.08354, -15.7952, -5.09687
119, 0.00000, -19.572, -4.05816, -19.1918, -8.24055, -15.7586, -5.82663
120, 0.00000, -17.1, -3.85669, -16.5802, -7.01371, -14.1036, -4.99236
121, 0.00000, -14.324, -3.84343, -14.2625, -5.37231, -12.9696, -4.56
122, 0.00000, -12.3936, -3.21643, -12.6296, -4.65667, -11.2648, -4.14361
123, 0.00000, -10.0551, -2.68535, -9.69353, -3.83341, -8.88117, -2.94742
124, 0.00000, -8.16381, -2.04254, -7.97932, -3.17904, -7.08898, -2.45168
125, 0.00000, -7.50576, -1.76872, -7.04081, -3.05656, -6.15965, -2.01052
126, 0.00000, -7.07625, -1.82528, -6.58305, -2.78443, -5.9999, -1.87885
127, 0.00000, -7.26241, -1.64621, -6.72406, -3.0192, -5.80536, -1.86749
128, 0.00000, -6.99592, -1.31837, -6.44035, -3.09737, -5.17858, -1.72762
129, 0.00000, -8.6194, -1.34121, -7.65206, -4.0712, -5.77355, -1.8696
130, 0.00000, -8.46544, -1.79175, -9.80434, -3.2036, -7.91386, -3.65832
131, 0.00000, -9.58063, -1.41436, -10.8008, -4.10606, -7.85916, -3.81863
132, 0.00000, -13.605, -2.97295, -14.0406, -5.46035, -11.6669, -4.59415
133, 0.00000, -14.0641, -3.0172, -12.729, -6.04931, -10.771, -3.37919
134, 0.00000, -14.7112, -4.0668, -13.344, -5.70858, -12.6057, -3.70286
135, 0.00000, -15.4248, -4.66195, -14.4178, -5.62965, -14.0859, -4.27719
136, 0.00000, -14.6634, -4.17781, -13.548, -5.55238, -12.9155, -3.90191
137, 0.00000, -13.69, -3.70676, -13.7825, -5.07804, -12.5477, -4.47694
138, 0.00000, -13.542, -3.52187, -12.9257, -5.26583, -11.7256, -3.86447
139, 0.00000, -13.6301, -2.96076, -13.181, -5.66234, -11.0676, -3.92555
140, 0.00000, -13.2381, -2.97288, -13.6478, -5.25934, -11.4635, -4.47349
141, 0.00000, -15.379, -3.27998, -14.4387, -6.52521, -12.0988, -4.09414
142, 0.00000, -17.7714, -4.05817, -16.2995, -7.44992, -14.1004, -4.48648
143, 0.00000, -17.8271, -4.04314, -17.5591, -7.24599, -14.9199, -5.41963
144, 0.00000, -14.5175, -3.02684, -13.8393, -6.15884, -11.4692, -4.01449
145, 0.00000, -10.751, -2.25145, -10.4727, -4.49898, -8.66632, -3.13616
146, 0.00000, -9.16854, -1.802, -8.79757, -3.94079, -7.13254, -2.55113
147, 0.00000, -7.73647, -1.6231, -7.42537, -3.25219, -6.17216, -2.16891
148, 0.00000, -7.0556, -1.66525, -7.06837, -2.77723, -6.1011, -2.23359
149, 0.00000, -6.94203, -1.56263, -6.76942, -2.82257, -5.76632, -2.04339
150, 0.00000, -7.01242, -1.60743, -6.87851, -2.82319, -5.89311, -2.09943
151, 0.00000, -7.79968, -1.61809, -7.47634, -3.29351, -6.18722, -2.17552
152, 0.00000, -9.00529, -1.87264, -9.0589, -3.71449, -7.43845, -2.8406
153, 0.00000, -10.0626, -2.20249, -10.0692, -4.09069, -8.43357, -3.15251
154, 0.00000, -9.04076, -1.71482, -9.42224, -3.77476, -7.4503, -3.07485
155, 0.00000, -10.5031, -2.34059, -9.65622, -4.41942, -8.28068, -2.64437
156, 0.00000, -12.8338, -2.71098, -13.2563, -5.2084, -10.8803, -4.32654
157, 0.00000, -13.5111, -2.73629, -13.3632, -5.68692, -10.8785, -4.08487
158, 0.00000, -13.5951, -3.16345, -12.4932, -5.64141, -10.8955, -3.4455
159, 0.00000, -13.1967, -3.14003, -14.0024, -5.04409, -11.9499, -4.78842
160, 0.00000, -13.1807, -3.19102, -12.4358, -5.31675, -10.9663, -3.60882
161, 0.00000, -11.8004, -3.06529, -11.221, -4.59566, -10.183, -3.32875
162, 0.00000, -12.6785, -2.94758, -11.3746, -5.31568, -9.97443, -3.00245
163, 0.00000, -10.8204, -2.79373, -10.7668, -4.12465, -9.63887, -3.41216
164, 0.00000, -10.7062, -2.55943, -11.8172, -3.97962, -10.0296, -4.2336
165, 0.00000, -15.0594, -4.40945, -14.2083, -5.56406, -13.6354, -4.25387
166, 0.00000, -17.2346, -4.73366, -18.1586, -6.20562, -16.4204, -6.27339
167, 0.00000, -16.4015, -4.00637, -17.8335, -6.12459, -15.2866, -6.31287
168, 0.00000, -12.5945, -2.60749, -13.4892, -5.04669, -10.9334, -4.60759
169, 0.00000, -9.48603, -2.10139, -9.87146, -3.75716, -8.24518, -3.26657
170, 0.00000, -8.33343, -1.76158, -8.25998, -3.44046, -6.84358, -2.53981
171, 0.00000, -7.8599, -1.74443, -7.69329, -3.20812, -6.51043, -2.33342
172, 0.00000, -7.35615, -1.7919, -7.15719, -2.90212, -6.29665, -2.17594
173, 0.00000, -7.04054, -1.62919, -6.79964, -2.84607, -5.86751, -2.02951
174, 0.00000, -7.28074, -1.58729, -7.13336, -2.98893, -5.99382, -2.16074
175, 0.00000, -8.14604, -1.59872, -7.56189, -3.55286, -6.16227, -2.07093
176, 0.00000, -8.6262, -1.87413, -8.66792, -3.50344, -7.23751, -2.72757
177, 0.00000, -10.3619, -2.71536, -9.78065, -4.02962, -8.9378, -2.87157
178, 0.00000, -9.8706, -2.5396, -8.88145, -3.9588, -8.14987, -2.39439
179, 0.00000, -11.1604, -2.87886, -10.0487, -4.47519, -9.22221, -2.71284
180, 0.00000, -13.7618, -3.29941, -11.8808, -5.80175, -10.6537, -2.92204
181, 0.00000, -14.0075, -3.2964, -13.6008, -5.6389, -11.7735, -4.11631
182, 0.00000, -12.6797, -3.49209, -12.8647, -4.64351, -11.7735, -4.22486
183, 0.00000, -14.0788, -3.21178, -13.8081, -5.7091, -11.7789, -4.22548
184, 0.00000, -14.8667, -4.40976, -13.6382, -5.53413, -13.2779, -3.90898
185, 0.00000, -13.6346, -3.78751, -12.509, -5.24388, -11.8101, -3.5424
186, 0.00000, -12.268, -2.70826, -11.2712, -5.18501, -9.62186, -3.08345
187, 0.00000, -11.4339, -2.23597, -10.9499, -4.93398, -8.85194, -3.16574
188, 0.00000, -11.537, -2.61336, -11.3672, -4.67189, -9.6681, -3.49448
189, 0.00000, -14.1943, -3.98495, -13.5627, -5.3218, -12.7179, -4.1088
190, 0.00000, -15.9059, -4.59872, -18.6913, -5.173, -16.8003, -7.3036
191, 0.00000, -18.5922, -3.8284, -19.593, -7.56503, -15.8574, -6.57216
192, 0.00000, -15.0168, -2.82089, -15.9965, -6.22917, -12.5614, -5.40456
193, 0.00000, -10.0586, -1.8266, -11.1615, -4.11629, -8.62611, -3.92928
194, 0.00000, -8.57656, -1.77031, -8.11555, -3.65052, -6.71924, -2.31278
195, 0.00000, -7.43409, -1.82591, -7.17447, -2.93491, -6.34485, -2.15673
196, 0.00000, -7.23053, -1.76487, -6.92383, -2.8725, -6.11851, -2.05461
197, 0.00000, -6.99638, -1.65428, -6.73463, -2.80875, -5.86659, -2.00521
198, 0.00000, -6.98734, -1.52149, -6.64932, -2.90939, -5.61651, -1.92347
199, 0.00000, -7.72966, -1.64416, -7.13876, -3.29106, -6.0076, -1.95712
200, 0.00000, -8.77009, -1.81727, -8.28625, -3.73082, -6.87295, -2.35753
201, 0.00000, -10.134, -2.1703, -10.7679, -4.02235, -8.8479, -3.64671
202, 0.00000, -11.1102, -2.48258, -11.6172, -4.3824, -9.72055, -3.87291
203, 0.00000, -10.5546, -2.69745, -12.7033, -3.59102, -10.857, -5.00423
204, 0.00000, -9.7729, -1.93154, -10.9988, -3.8614, -8.7149, -3.95902
205, 0.00000, -13.091, -3.04818, -13.0491, -5.22034, -11.1898, -4.09743
206, 0.00000, -12.7034, -3.70075, -12.567, -4.57934, -11.8737, -4.02261
207, 0.00000, -14.4919, -4.32399, -14.7423, -5.08013, -13.9615, -4.92047
208, 0.00000, -10.4153, -2.86903, -11.5935, -3.59475, -10.3768, -4.2527
209, 0.00000, -10.2526, -2.5251, -11.1721, -3.79069, -9.61606, -3.95301
210, 0.00000, -10.9756, -2.81382, -12.4118, -3.89302, -10.7568, -4.59608
211, 0.00000, -10.9869, -3.13918, -11.3639, -3.89563, -10.521, -3.84334
212, 0.00000, -11.6285, -2.001, -12.4432, -4.93585, -9.49127, -4.17423
213, 0.00000, -13.7935, -3.93356, -15.6248, -4.63253, -14.1028, -5.86786
214, 0.00000, -16.223, -4.24065, -18.068, -5.78034, -15.8092, -6.61643
215, 0.00000, -16.1792, -3.52965, -18.1989, -6.20056, -14.8732, -6.62238
216, 0.00000, -13.8304, -3.14322, -14.5026, -5.4186, -12.1763, -4.86553
217, 0.00000, -11.5325, -2.69135, -11.9851, -4.48676, -10.2036, -3.9833
218, 0.00000, -9.54566, -2.16532, -9.58167, -3.81941, -8.13161, -3.02614
219, 0.00000, -7.49544, -1.70817, -7.34036, -3.02671, -6.27628, -2.23539
220, 0.00000, -7.05767, -1.557, -6.90838, -2.88491, -5.83367, -2.09341
221, 0.00000, -6.99808, -1.51631, -6.89784, -2.86978, -5.77668, -2.10713
222, 0.00000, -6.90961, -1.51545, -6.72289, -2.83854, -5.67094, -2.01691
223, 0.00000, -7.60428, -1.46328, -7.28351, -3.28866, -5.86343, -2.09918
224, 0.00000, -7.84186, -1.53487, -7.77128, -3.31955, -6.26238, -2.36959
225, 0.00000, -10.6883, -2.93516, -10.3067, -4.02187, -9.55991, -3.14985
226, 0.00000, -9.54301, -2.19278, -9.26049, -3.86626, -7.95509, -2.78596
227, 0.00000, -11.5465, -2.73917, -11.1517, -4.63821, -9.70562, -3.34617
228, 0.00000, -10.5056, -2.70212, -11.3914, -3.81836, -9.98233, -4.02718
229, 0.00000, -11.4175, -2.89945, -11.7482, -4.30713, -10.3625, -3.89048
230, 0.00000, -11.2595, -2.92384, -10.7722, -4.37133, -9.75939, -3.22387
231, 0.00000, -11.3251, -2.42293, -13.0293, -4.29815, -10.5509, -4.83597
232, 0.00000, -11.9225, -3.58499, -11.9336, -4.19086, -11.4029, -3.89771
233, 0.00000, -10.3592, -3.54858, -9.74751, -3.4693, -10.1236, -2.98072
234, 0.00000, -10.2433, -3.20171, -9.29307, -3.71067, -9.32803, -2.63213
235, 0.00000, -10.5997, -2.60089, -10.5086, -4.14015, -9.22261, -3.29188
236, 0.00000, -10.2157, -2.56494, -10.1528, -3.94326, -8.99131, -3.20144
237, 0.00000, -13.7778, -4.79697, -13.1731, -4.53374, -13.7061, -4.14483
238, 0.00000, -15.0373, -3.86975, -17.672, -5.20894, -15.1987, -6.82518
239, 0.00000, -17.2329, -3.3696, -17.9494, -7.16879, -14.3043, -5.89595
240, 0.00000, -13.5782, -3.13851, -14.4132, -5.24913, -12.1684, -4.92248
241, 0.00000, -9.78122, -2.52724, -10.6703, -3.53074, -9.35861, -3.8005
242, 0.00000, -7.80952, -1.93759, -9.30944, -2.7043, -7.8958, -3.62249
243, 0.00000, -7.51252, -1.82693, -7.70708, -2.88359, -6.69509, -2.52549
244, 0.00000, -6.95457, -1.6426, -7.06091, -2.71677, -6.0781, -2.27306
245, 0.00000, -6.94019, -1.59552, -6.78641, -2.7946, -5.82497, -2.06288
246, 0.00000, -6.72333, -1.5813, -6.63337, -2.67071, -5.73533, -2.04864
247, 0.00000, -7.47766, -1.64974, -7.11628, -3.09984, -6.04139, -2.06277
248, 0.00000, -8.66962, -2.31543, -7.89597, -3.39638, -7.34679, -2.18743
249, 0.00000, -9.93902, -3.30088, -9.12199, -3.44471, -9.40638, -2.66655
250, 0.00000, -8.73604, -2.07615, -8.41987, -3.50169, -7.34477, -2.51691
251, 0.00000, -9.74208, -1.89151, -10.0646, -4.0587, -8.02821, -3.25275
252, 0.00000, -10.8781, -3.17168, -11.3405, -3.79612, -10.5706, -3.88276
253, 0.00000, -12.9166, -2.63378, -12.5676, -5.46728, -10.2872, -3.74585
254, 0.00000, -14.6191, -2.07642, -15.1969, -6.6096, -10.9803, -4.84112
255, 0.00000, -15.3359, -4.27269, -14.3231, -5.84785, -13.4693, -4.18211
256, 0.00000, -13.8729, -2.88646, -14.5897, -5.61128, -11.8753, -4.87292
257, 0.00000, -12.3698, -2.67555, -12.654, -5.00454, -10.4984, -4.08293
258, 0.00000, -13.7256, -3.25442, -13.4031, -5.49492, -11.6229, -4.09119
259, 0.00000, -13.076, -3.70201, -12.9094, -4.79455, -12.0455, -4.10199
260, 0.00000, -10.9142, -2.71978, -10.7979, -4.2398, -9.53906, -3.37937
261, 0.00000, -11.3613, -2.61374, -11.9037, -4.42544, -10.0647, -3.9918
262, 0.00000, -16.9235, -4.52343, -17.6733, -6.20591, -15.839, -6.02153
263, 0.00000, -17.6301, -4.34854, -17.0577, -6.98957, -15.0617, -5.18371
264, 0.00000, -14.6637, -3.38094, -14.9057, -5.8118, -12.6807, -4.81636
265, 0.00000, -13.8578, -2.98515, -13.9404, -5.66326, -11.5812, -4.40169
266, 0.00000, -11.6481, -2.63143, -12.155, -4.57999, -10.2156, -4.04909
267, 0.00000, -9.05303, -2.29813, -8.9646, -3.48008, -7.98475, -2.81477
268, 0.00000, -7.1375, -1.57712, -7.33456, -2.84416, -6.13879, -2.38278
269, 0.00000, -7.29704, -1.60727, -7.07262, -2.99995, -5.97944, -2.11023
270, 0.00000, -7.16306, -1.62783, -6.99727, -2.8993, -5.97953, -2.12086
271, 0.00000, -7.08778, -1.6821, -6.91681, -2.82144, -6.01564, -2.1047
272, 0.00000, -6.46586, -1.36819, -6.42106, -2.66243, -5.32333, -1.97817
273, 0.00000, -7.89581, -2.23824, -7.49818, -2.93995, -7.09059, -2.2469
274, 0.00000, -8.766, -2.52033, -8.70665, -3.16547, -8.18, -2.79075
275, 0.00000, -9.88256, -2.08722, -12.2808, -3.57771, -9.79412, -4.90991
276, 0.00000, -12.6486, -2.10389, -13.4373, -5.44241, -10.1557, -4.45768
277, 0.00000, -12.7107, -1.97625, -13.7523, -5.51071, -10.173, -4.64878
