hour, t(sec), P1 (kW), Q1 (kvar), P2 (kW), Q2 (kvar), P3 (kW), Q3 (kvar), P4 (kW), Q4 (kvar)
1, 0.00000, -10.5512, -3.44863, -14.4873, -4.76201, -10.751, -3.55846, 0.000276043, 0.000101635
2, 0.00000, -6.78261, -2.22284, -9.5806, -3.14514, -7.76418, -2.56483, 0.000112929, 4.15554E-005
3, 0.00000, -4.91123, -1.60708, -7.60477, -2.50017, -4.98098, -1.64509, 0.000133276, 4.90631E-005
4, 0.00000, -3.93974, -1.29267, -6.09715, -2.00034, -4.96575, -1.63908, 6.57517E-005, 2.41996E-005
5, 0.00000, -3.74841, -1.23073, -5.14038, -1.6875, -4.41407, -1.45495, 2.72801E-005, 1.00394E-005
6, 0.00000, -3.75779, -1.23379, -4.79728, -1.57587, -4.40294, -1.45012, 1.55323E-005, 5.71407E-006
7, 0.00000, -3.87016, -1.2697, -5.30224, -1.74183, -4.46851, -1.4728, 2.9414E-005, 1.08384E-005
8, 0.00000, -4.04556, -1.32895, -5.60397, -1.83841, -5.48189, -1.80709, 4.24799E-005, 1.56415E-005
9, 0.00000, -6.2081, -2.03791, -8.39178, -2.75133, -7.22917, -2.38761, 6.73337E-005, 2.47943E-005
10, 0.00000, -7.42684, -2.42684, -12.2255, -4.01095, -8.92211, -2.95803, 0.00034439, 0.000126822
11, 0.00000, -12.8798, -4.1955, -15.2439, -5.04247, -9.97524, -3.29107, 0.000397711, 0.000146469
12, 0.00000, -13.2252, -4.33391, -14.1554, -4.66523, -11.687, -3.84849, 8.84821E-005, 3.26023E-005
13, 0.00000, -11.8168, -3.87325, -14.2272, -4.67773, -12.1828, -4.02002, 9.50034E-005, 3.49832E-005
14, 0.00000, -9.7564, -3.20727, -12.9456, -4.23726, -12.6017, -4.16471, 0.000172409, 6.34602E-005
15, 0.00000, -10.7489, -3.52252, -14.9733, -4.90405, -13.0619, -4.328, 0.000252592, 9.30283E-005
16, 0.00000, -12.5626, -4.11038, -17.3441, -5.69372, -13.5408, -4.48497, 0.000363897, 0.000133957
17, 0.00000, -9.05888, -2.9571, -15.2011, -4.98946, -10.1526, -3.36996, 0.000612907, 0.000225639
18, 0.00000, -8.14567, -2.66916, -12.1913, -3.99698, -9.9302, -3.28635, 0.000233742, 8.60527E-005
19, 0.00000, -7.80789, -2.55927, -11.6497, -3.81993, -9.31559, -3.08191, 0.000214496, 7.89678E-005
20, 0.00000, -9.6733, -3.16217, -15.2088, -4.98553, -11.7189, -3.88858, 0.000443905, 0.000163438
21, 0.00000, -12.3952, -4.05201, -16.2202, -5.33003, -12.7648, -4.22646, 0.000252179, 9.28217E-005
22, 0.00000, -13.5226, -4.39194, -19.7799, -6.51604, -12.4118, -4.12736, 0.000898043, 0.000330607
23, 0.00000, -13.1577, -4.29023, -16.6423, -5.49033, -11.235, -3.71475, 0.000424052, 0.000156096
24, 0.00000, -9.3128, -3.04649, -12.0304, -3.95856, -8.8617, -2.92695, 0.000167565, 6.16577E-005
25, 0.00000, -6.8832, -2.25116, -10.4027, -3.41825, -6.97251, -2.30656, 0.000229411, 8.44669E-005
26, 0.00000, -6.40107, -2.10177, -6.62202, -2.17788, -5.61297, -1.84713, 1.6091E-005, 5.92677E-006
27, 0.00000, -4.20418, -1.37996, -6.00117, -1.96904, -5.10137, -1.68303, 4.565E-005, 1.68023E-005
28, 0.00000, -3.94029, -1.29189, -5.02453, -1.65287, -3.64384, -1.20016, 2.99124E-005, 1.10101E-005
29, 0.00000, -3.38324, -1.10945, -4.90382, -1.61128, -3.79328, -1.25048, 3.50149E-005, 1.28863E-005
30, 0.00000, -4.35119, -1.4279, -4.70813, -1.54908, -3.71412, -1.22212, 1.43984E-005, 5.3043E-006
31, 0.00000, -4.38199, -1.4385, -5.47593, -1.79916, -5.10907, -1.6827, 1.75797E-005, 6.47664E-006
32, 0.00000, -5.37881, -1.76342, -7.45281, -2.44817, -6.09403, -2.0106, 6.32767E-005, 2.33199E-005
33, 0.00000, -7.8193, -2.54798, -14.1784, -4.64605, -9.91337, -3.29878, 0.000595572, 0.000219268
34, 0.00000, -9.40317, -3.04343, -15.463, -5.10187, -9.21101, -3.05983, 0.000720035, 0.000265175
35, 0.00000, -10.9202, -3.54114, -18.3358, -6.02863, -13.081, -4.35246, 0.000815235, 0.000300087
36, 0.00000, -15.9864, -5.19837, -18.7464, -6.20252, -14.6951, -4.85347, 0.000238724, 8.79348E-005
37, 0.00000, -14.1385, -4.5943, -18.046, -5.96343, -13.5683, -4.48828, 0.00033208, 0.000122289
38, 0.00000, -12.4057, -4.012, -21.2796, -6.9938, -14.0062, -4.67923, 0.00125489, 0.000461938
39, 0.00000, -11.5559, -3.77867, -17.0938, -5.5955, -14.4884, -4.81284, 0.00042786, 0.000157463
40, 0.00000, -11.5664, -3.76483, -16.625, -5.47393, -10.9727, -3.64077, 0.000547684, 0.000201618
41, 0.00000, -11.2472, -3.65047, -20.0736, -6.5886, -12.7052, -4.24035, 0.00126129, 0.000464292
42, 0.00000, -9.99721, -3.25841, -15.6407, -5.13552, -11.5259, -3.82718, 0.000478612, 0.000176211
43, 0.00000, -9.00749, -2.96172, -13.571, -4.42487, -13.9198, -4.61603, 0.000419856, 0.000154516
44, 0.00000, -10.2466, -3.34585, -15.7366, -5.15777, -12.955, -4.30134, 0.000423446, 0.00015582
45, 0.00000, -12.4493, -4.08477, -15.0344, -4.93257, -13.7448, -4.54146, 9.24438E-005, 3.40097E-005
46, 0.00000, -15.9009, -5.19478, -20.9227, -6.87287, -16.6967, -5.5366, 0.000417223, 0.000153681
47, 0.00000, -15.1361, -4.94005, -16.1759, -5.35302, -11.975, -3.94322, 0.000271623, 0.000100002
48, 0.00000, -7.72747, -2.5446, -10.2229, -3.33961, -10.6037, -3.50481, 0.000136596, 5.02608E-005
49, 0.00000, -4.65625, -1.51004, -10.691, -3.51989, -4.13875, -1.37618, 0.000755407, 0.000278109
50, 0.00000, -6.54036, -2.1438, -8.65762, -2.84502, -6.79899, -2.24331, 7.5276E-005, 2.77228E-005
51, 0.00000, -5.40198, -1.77163, -6.1054, -2.00888, -4.69097, -1.54472, 2.82451E-005, 1.04041E-005
52, 0.00000, -3.88375, -1.27286, -5.5661, -1.82965, -4.01683, -1.32453, 4.94495E-005, 1.82004E-005
53, 0.00000, -3.72832, -1.22296, -5.01562, -1.64854, -4.0005, -1.31805, 2.60759E-005, 9.60054E-006
54, 0.00000, -3.74111, -1.22683, -5.08773, -1.67232, -3.82175, -1.25958, 3.24428E-005, 1.19505E-005
55, 0.00000, -4.57192, -1.50246, -5.54965, -1.82208, -5.95258, -1.9599, 2.85673E-005, 1.05169E-005
56, 0.00000, -7.03978, -2.3075, -7.80542, -2.56996, -6.24494, -2.05654, 3.5084E-005, 1.29307E-005
57, 0.00000, -10.3123, -3.35236, -14.3793, -4.74385, -8.23832, -2.73201, 0.000554738, 0.000204233
58, 0.00000, -12.2967, -4.00188, -13.212, -4.37769, -7.18431, -2.37087, 0.000601332, 0.000221378
59, 0.00000, -10.1846, -3.3047, -16.4716, -5.42336, -9.85565, -3.27846, 0.000790634, 0.000291118
60, 0.00000, -10.1596, -3.32112, -18.194, -5.93057, -14.9122, -4.97749, 0.000913065, 0.000336061
61, 0.00000, -11.6228, -3.79384, -18.6721, -6.10625, -14.857, -4.94937, 0.00069952, 0.000257515
62, 0.00000, -11.7679, -3.8377, -18.71, -6.12325, -14.9457, -4.97818, 0.000673718, 0.000247993
63, 0.00000, -10.6088, -3.4586, -19.1986, -6.264, -14.582, -4.87579, 0.00103722, 0.000381823
64, 0.00000, -10.5062, -3.41226, -17.5538, -5.77046, -10.5185, -3.50374, 0.000938838, 0.0003456
65, 0.00000, -12.4767, -4.03707, -19.0338, -6.28823, -10.5001, -3.4905, 0.00112963, 0.000415822
66, 0.00000, -11.6096, -3.7695, -18.6094, -6.12548, -12.3103, -4.09159, 0.000836526, 0.000307916
67, 0.00000, -8.73872, -2.84322, -16.2938, -5.34358, -11.2628, -3.74882, 0.000837768, 0.000308388
68, 0.00000, -7.32029, -2.38201, -18.1182, -5.90613, -12.9622, -4.34067, 0.00164373, 0.000605005
69, 0.00000, -10.1045, -3.31542, -15.7623, -5.14619, -14.8892, -4.942, 0.000521923, 0.000192063
70, 0.00000, -15.1902, -4.98644, -16.8275, -5.52702, -15.889, -5.24285, 3.76773E-005, 1.38765E-005
71, 0.00000, -13.5076, -4.42174, -16.4564, -5.40993, -13.513, -4.46692, 0.000164178, 6.04364E-005
72, 0.00000, -11.212, -2.90708, -131.172, -42.9551, -10.6593, -4.34697, 0.279426, 0.102849
73, 0.00000, -6.64038, -2.17656, -9.68823, -3.17862, -7.77213, -2.5689, 0.000134646, 4.95861E-005
74, 0.00000, -5.39522, -1.76762, -7.57227, -2.48891, -5.60933, -1.85088, 8.15513E-005, 3.00248E-005
75, 0.00000, -3.97353, -1.30179, -5.6857, -1.86974, -3.8978, -1.28525, 5.79919E-005, 2.13501E-005
76, 0.00000, -3.63207, -1.19049, -5.23154, -1.71974, -3.76122, -1.24001, 4.47609E-005, 1.64809E-005
77, 0.00000, -3.56569, -1.16841, -5.23331, -1.72037, -3.58451, -1.18212, 5.20305E-005, 1.91565E-005
78, 0.00000, -3.69828, -1.21458, -5.02056, -1.6478, -4.81625, -1.58716, 2.86866E-005, 1.05617E-005
79, 0.00000, -3.85855, -1.26466, -5.79511, -1.90422, -4.42555, -1.4596, 5.63658E-005, 2.07663E-005
80, 0.00000, -5.19444, -1.70576, -7.41877, -2.43132, -7.51574, -2.48085, 9.77574E-005, 3.59923E-005
81, 0.00000, -9.08392, -2.9665, -13.1137, -4.30626, -9.92139, -3.28825, 0.000256798, 9.45545E-005
82, 0.00000, -10.4283, -3.39757, -11.7538, -3.88964, -8.39988, -2.7678, 0.00016198, 5.96403E-005
83, 0.00000, -9.51678, -3.08875, -16.2714, -5.34731, -11.6531, -3.87585, 0.00067595, 0.00024886
84, 0.00000, -8.95056, -2.90214, -19.7052, -6.43846, -13.8876, -4.65056, 0.00163712, 0.000602703
85, 0.00000, -9.88464, -3.21239, -17.3166, -5.68379, -12.0676, -4.01756, 0.000824773, 0.000303686
86, 0.00000, -9.30877, -3.03211, -18.8394, -6.15164, -13.7061, -4.58137, 0.00127922, 0.000470933
87, 0.00000, -9.96713, -3.26238, -17.7893, -5.79737, -15.3363, -5.11236, 0.000897986, 0.000330566
88, 0.00000, -11.1331, -3.64646, -13.9394, -4.57921, -11.8266, -3.90834, 0.000122541, 4.51442E-005
89, 0.00000, -9.72772, -3.15745, -16.3984, -5.39972, -9.50386, -3.15953, 0.000875298, 0.000322249
90, 0.00000, -11.6212, -3.79555, -17.2124, -5.65049, -13.4745, -4.46781, 0.00045446, 0.000167285
91, 0.00000, -8.39532, -2.73313, -14.9081, -4.89225, -10.5506, -3.50692, 0.000619434, 0.000227988
92, 0.00000, -8.23742, -2.68965, -15.3751, -5.02933, -12.0869, -4.02072, 0.000717756, 0.000264162
93, 0.00000, -10.536, -3.44866, -15.1978, -4.97737, -13.1162, -4.34995, 0.000304329, 0.000111988
94, 0.00000, -12.1477, -3.97861, -16.6375, -5.44949, -14.7192, -4.87962, 0.000287092, 0.000105701
95, 0.00000, -11.8359, -3.87273, -15.8909, -5.21935, -12.1469, -4.02087, 0.000289714, 0.000106677
96, 0.00000, -10.2547, -3.35778, -13.2499, -4.35368, -10.7583, -3.55542, 0.000144733, 5.33001E-005
97, 0.00000, -5.36314, -1.75262, -8.72626, -2.8693, -5.52679, -1.8273, 0.000204669, 7.5351E-005
98, 0.00000, -7.75694, -2.53864, -10.7142, -3.523, -7.93065, -2.61927, 0.000156478, 5.76224E-005
99, 0.00000, -6.67996, -2.19224, -8.33576, -2.73853, -7.07549, -2.3323, 4.23441E-005, 1.55908E-005
100, 0.00000, -5.50484, -1.80579, -7.50524, -2.46499, -6.09736, -2.01107, 5.98111E-005, 2.20176E-005
101, 0.00000, -3.76344, -1.23394, -5.68389, -1.86671, -4.50732, -1.48683, 5.31607E-005, 1.95724E-005
102, 0.00000, -4.53399, -1.48679, -5.08646, -1.67456, -4.1321, -1.35962, 1.30757E-005, 4.81638E-006
103, 0.00000, -4.00013, -1.31143, -5.26422, -1.73105, -4.02525, -1.32632, 2.98555E-005, 1.10002E-005
104, 0.00000, -3.74329, -1.22746, -5.72897, -1.88093, -4.57735, -1.51036, 5.65562E-005, 2.08397E-005
105, 0.00000, -4.73891, -1.55098, -6.87314, -2.25942, -4.70907, -1.55525, 8.78271E-005, 3.23344E-005
106, 0.00000, -6.19769, -2.03879, -8.77425, -2.86809, -9.77955, -3.2313, 0.00019267, 7.08881E-005
107, 0.00000, -6.67522, -2.19827, -12.8635, -4.18102, -13.437, -4.46439, 0.000796161, 0.000293087
108, 0.00000, -10.4576, -3.43769, -15.5357, -5.06999, -15.0875, -5.00226, 0.000447445, 0.000164709
109, 0.00000, -9.10289, -2.97881, -16.786, -5.47776, -13.9437, -4.64318, 0.000850411, 0.000313042
110, 0.00000, -10.231, -3.35473, -15.4183, -5.04213, -13.3318, -4.42224, 0.000382267, 0.000140658
111, 0.00000, -10.6622, -3.4865, -16.2033, -5.30676, -13.6729, -4.53846, 0.00043186, 0.000158953
112, 0.00000, -12.013, -3.92187, -15.8847, -5.23102, -11.9622, -3.95562, 0.000287766, 0.000105948
113, 0.00000, -9.30854, -3.0411, -13.0694, -4.29754, -9.32452, -3.08593, 0.000264474, 9.73693E-005
114, 0.00000, -10.0602, -3.30197, -11.2993, -3.71503, -10.3943, -3.42437, 2.28833E-005, 8.4241E-006
115, 0.00000, -10.0244, -3.30179, -8.41936, -2.77112, -10.0646, -3.30088, 5.00397E-005, 1.84083E-005
116, 0.00000, -8.68929, -2.84321, -11.9811, -3.93445, -10.1756, -3.36491, 0.000152668, 5.62064E-005
117, 0.00000, -10.3549, -3.36788, -17.5205, -5.75568, -10.97, -3.65115, 0.00089198, 0.000328357
118, 0.00000, -11.2701, -3.66642, -16.0966, -5.30501, -9.85567, -3.26916, 0.000607063, 0.000223487
119, 0.00000, -12.1274, -3.94698, -17.7344, -5.84014, -11.6812, -3.87562, 0.000647933, 0.000238556
120, 0.00000, -10.0893, -3.29695, -14.435, -4.74751, -10.5566, -3.4917, 0.000322366, 0.000118698
121, 0.00000, -9.88666, -3.23571, -12.3184, -4.0547, -9.27733, -3.06166, 0.000148395, 5.46726E-005
122, 0.00000, -8.19342, -2.6806, -11.4344, -3.75858, -8.38347, -2.77106, 0.000187449, 6.90265E-005
123, 0.00000, -6.4232, -2.10535, -8.12721, -2.67276, -6.34221, -2.09083, 5.75839E-005, 2.1206E-005
124, 0.00000, -5.27193, -1.72897, -6.72367, -2.2105, -5.45073, -1.79613, 3.55373E-005, 1.30875E-005
125, 0.00000, -3.96143, -1.29873, -5.23968, -1.72326, -3.74684, -1.23449, 3.7029E-005, 1.36372E-005
126, 0.00000, -4.07317, -1.3358, -4.96402, -1.63322, -3.73708, -1.23034, 2.28942E-005, 8.43487E-006
127, 0.00000, -4.14604, -1.36031, -5.36529, -1.76341, -4.56663, -1.5043, 2.18115E-005, 8.04062E-006
128, 0.00000, -3.84341, -1.26134, -5.47956, -1.79897, -4.99614, -1.64701, 4.00245E-005, 1.47438E-005
129, 0.00000, -4.14351, -1.35758, -6.89431, -2.26214, -5.74718, -1.8984, 0.000108947, 4.01243E-005
130, 0.00000, -5.22343, -1.71577, -7.60816, -2.49143, -7.87654, -2.60115, 0.000121184, 4.46248E-005
131, 0.00000, -6.61181, -2.17669, -8.9532, -2.92686, -10.1273, -3.34418, 0.000180929, 6.6576E-005
132, 0.00000, -11.6884, -3.8502, -12.8663, -4.2191, -13.5297, -4.45473, 4.82075E-005, 1.77262E-005
133, 0.00000, -8.49872, -2.787, -12.2879, -4.02701, -10.919, -3.61162, 0.000207046, 7.62011E-005
134, 0.00000, -9.74469, -3.19686, -15.3867, -5.02968, -13.214, -4.3835, 0.000452552, 0.000166544
135, 0.00000, -9.18106, -3.02382, -12.9585, -4.23873, -12.1765, -4.02097, 0.000223638, 8.2324E-005
136, 0.00000, -10.9676, -3.58453, -15.8097, -5.19561, -11.5764, -3.83282, 0.00039376, 0.000144954
137, 0.00000, -8.78475, -2.88175, -10.5019, -3.45218, -8.91967, -2.94042, 5.12206E-005, 1.88534E-005
138, 0.00000, -9.42424, -3.09046, -10.7229, -3.52931, -8.83222, -2.90889, 5.31434E-005, 1.95701E-005
139, 0.00000, -8.56352, -2.81014, -10.6817, -3.50817, -9.20634, -3.03666, 6.66031E-005, 2.45213E-005
140, 0.00000, -8.50151, -2.7807, -12.8175, -4.20995, -9.43404, -3.1217, 0.000290206, 0.000106821
141, 0.00000, -11.9523, -3.90354, -13.936, -4.60152, -9.65111, -3.18177, 0.000259128, 9.53736E-005
142, 0.00000, -13.1788, -4.31207, -15.1061, -4.97983, -12.0778, -3.98192, 0.00013432, 4.94638E-005
143, 0.00000, -11.6345, -3.81696, -13.6042, -4.47117, -12.1728, -4.0146, 5.95296E-005, 2.1938E-005
144, 0.00000, -12.1174, -3.97272, -12.2449, -4.03807, -10.6013, -3.48657, 4.76838E-005, 1.75418E-005
145, 0.00000, -4.35867, -1.42726, -6.88937, -2.26365, -4.74599, -1.56723, 0.000105495, 3.88408E-005
146, 0.00000, -5.89069, -1.92725, -8.77029, -2.88264, -6.10405, -2.01713, 0.000146418, 5.39338E-005
147, 0.00000, -4.54155, -1.48875, -5.89218, -1.93787, -4.38932, -1.44641, 3.89023E-005, 1.43254E-005
148, 0.00000, -4.12591, -1.35328, -5.04278, -1.65871, -3.99915, -1.31678, 1.844E-005, 6.79079E-006
149, 0.00000, -3.656, -1.19929, -5.13424, -1.68691, -4.01933, -1.32479, 3.36111E-005, 1.23758E-005
150, 0.00000, -4.18992, -1.37351, -5.41277, -1.78055, -4.01741, -1.32344, 3.28397E-005, 1.20961E-005
151, 0.00000, -4.11893, -1.34658, -7.31359, -2.40268, -4.73108, -1.5645, 0.00016324, 6.01186E-005
152, 0.00000, -5.9696, -1.94868, -10.1734, -3.34096, -6.95693, -2.30515, 0.000274045, 0.000100915
153, 0.00000, -8.32752, -2.71641, -12.0064, -3.9512, -8.33495, -2.75893, 0.000255991, 9.42691E-005
154, 0.00000, -6.99941, -2.28374, -10.0782, -3.3191, -6.72174, -2.2221, 0.000197695, 7.28075E-005
155, 0.00000, -6.55866, -2.13903, -13.7942, -4.50964, -10.345, -3.44567, 0.000735541, 0.000270702
156, 0.00000, -7.69805, -2.50926, -15.8816, -5.19309, -11.1315, -3.71195, 0.000951338, 0.0003502
157, 0.00000, -9.53427, -3.10763, -16.4086, -5.37748, -11.7162, -3.89898, 0.000693462, 0.000255287
158, 0.00000, -9.65081, -3.16865, -14.3139, -4.67522, -13.9401, -4.6211, 0.000372776, 0.00013714
159, 0.00000, -9.77058, -3.2057, -13.8807, -4.54046, -12.7661, -4.22932, 0.00025343, 9.33102E-005
160, 0.00000, -9.66395, -3.15602, -14.1717, -4.65864, -9.96903, -3.30152, 0.000359034, 0.000132163
161, 0.00000, -9.29614, -3.01928, -16.3198, -5.37028, -9.58911, -3.18752, 0.000891217, 0.00032809
162, 0.00000, -8.68939, -2.82887, -14.953, -4.9126, -9.95235, -3.30563, 0.000615987, 0.000226703
163, 0.00000, -8.6572, -2.82813, -13.5987, -4.46132, -10.831, -3.59038, 0.000341717, 0.000125743
164, 0.00000, -8.35336, -2.72596, -15.2252, -4.98078, -11.8767, -3.95239, 0.000661845, 0.00024357
165, 0.00000, -10.0141, -3.26645, -15.5706, -5.11048, -11.3268, -3.76143, 0.000471435, 0.0001735
166, 0.00000, -13.4163, -4.36181, -18.9468, -6.24788, -12.1838, -4.04168, 0.000737648, 0.000271584
167, 0.00000, -12.0042, -3.92869, -15.1787, -4.99188, -11.8725, -3.92324, 0.000200169, 7.37267E-005
168, 0.00000, -7.99476, -2.63581, -10.5147, -3.43633, -11.0826, -3.65813, 0.000152705, 5.62105E-005
169, 0.00000, -5.81739, -1.90316, -9.41433, -3.09236, -6.3595, -2.10329, 0.000213636, 7.86634E-005
170, 0.00000, -4.11156, -1.34523, -7.48695, -2.45976, -4.56869, -1.51018, 0.000190373, 7.00941E-005
171, 0.00000, -3.92894, -1.28776, -6.39167, -2.09941, -4.65137, -1.53489, 9.08101E-005, 3.34298E-005
172, 0.00000, -3.96929, -1.30157, -5.2366, -1.72195, -3.84943, -1.26829, 3.3491E-005, 1.23299E-005
173, 0.00000, -3.52251, -1.15462, -5.13807, -1.68887, -3.6009, -1.1873, 4.69942E-005, 1.73006E-005
174, 0.00000, -3.78773, -1.24294, -5.3641, -1.76144, -4.53678, -1.49564, 3.52293E-005, 1.29759E-005
175, 0.00000, -4.00916, -1.31095, -7.26382, -2.38576, -4.84288, -1.60136, 0.000162146, 5.97107E-005
176, 0.00000, -5.65553, -1.83882, -10.6177, -3.4949, -5.41329, -1.7962, 0.000490386, 0.000180545
177, 0.00000, -5.96475, -1.93872, -12.4648, -4.09341, -6.92379, -2.30376, 0.000699814, 0.000257665
178, 0.00000, -7.73954, -2.50618, -15.3444, -5.04417, -8.95533, -2.98431, 0.000948159, 0.000349118
179, 0.00000, -12.3618, -4.00073, -20.0483, -6.60652, -11.8517, -3.94895, 0.00119527, 0.000440044
180, 0.00000, -11.2309, -3.63843, -20.1196, -6.60686, -12.777, -4.26711, 0.00127058, 0.000467769
181, 0.00000, -10.9241, -3.56257, -15.929, -5.23632, -11.654, -3.86427, 0.000411351, 0.000151459
182, 0.00000, -11.0978, -3.6383, -15.801, -5.16676, -14.6926, -4.8728, 0.000334024, 0.000122915
183, 0.00000, -10.0691, -3.30728, -13.5212, -4.42442, -13.562, -4.48576, 0.000224881, 8.27631E-005
184, 0.00000, -8.15865, -2.66826, -13.5582, -4.43974, -10.8513, -3.60138, 0.000411045, 0.000151313
185, 0.00000, -9.38589, -3.05511, -16.824, -5.5209, -11.1267, -3.70249, 0.000854851, 0.000314713
186, 0.00000, -7.75945, -2.51785, -16.9538, -5.55882, -10.2662, -3.42635, 0.00127655, 0.000469964
187, 0.00000, -8.0097, -2.60703, -15.3014, -5.01596, -10.7445, -3.57601, 0.000765244, 0.000281704
188, 0.00000, -9.00677, -2.94466, -14.2578, -4.67421, -11.7735, -3.90309, 0.000384502, 0.000141491
189, 0.00000, -11.1161, -3.63676, -15.8112, -5.18436, -13.0182, -4.3156, 0.000311653, 0.000114696
190, 0.00000, -11.6915, -3.82746, -18.4346, -6.03056, -15.0412, -4.99715, 0.000638167, 0.000234927
191, 0.00000, -11.6991, -3.82382, -14.575, -4.80241, -10.6929, -3.5305, 0.000232748, 8.57126E-005
192, 0.00000, -9.95257, -2.31444, -184.961, -60.2681, -10.5996, -4.68925, 0.596795, 0.219664
193, 0.00000, -5.85846, -1.92177, -6.93146, -2.27924, -5.70582, -1.87969, 2.52387E-005, 9.29284E-006
194, 0.00000, -6.82666, -2.23493, -10.1329, -3.32879, -7.35345, -2.4302, 0.00017951, 6.61043E-005
195, 0.00000, -5.30966, -1.74117, -6.60234, -2.17142, -5.13119, -1.69044, 3.64883E-005, 1.3436E-005
196, 0.00000, -3.98344, -1.30602, -5.46104, -1.79528, -4.22959, -1.39392, 3.54487E-005, 1.30493E-005
197, 0.00000, -4.0024, -1.31202, -5.38618, -1.77123, -3.87504, -1.27703, 3.98205E-005, 1.46617E-005
198, 0.00000, -3.76952, -1.23643, -4.98255, -1.63783, -3.89717, -1.28401, 2.52747E-005, 9.31186E-006
199, 0.00000, -4.05574, -1.32301, -8.47486, -2.783, -5.09108, -1.68708, 0.000303106, 0.000111613
200, 0.00000, -6.56544, -2.13909, -9.78196, -3.22368, -5.23717, -1.73368, 0.00031049, 0.000114318
201, 0.00000, -8.27724, -2.69742, -11.2944, -3.72299, -7.0177, -2.3221, 0.000276001, 0.00010168
202, 0.00000, -6.75202, -2.2079, -11.9622, -3.91407, -9.93119, -3.29667, 0.000389213, 0.000143318
