Bus, BasekV, Node1, Magnitude1, Angle1, pu1, Node2, Magnitude2, Angle2, pu2, Node3, Magnitude3, Angle3, pu3, Node4, Magnitude4, Angle4, pu4
"SOURCE", 22, 1,    12650.8,   -0.4,   0.99599, 2,    12639.8, -120.5,   0.99513, 3,    12638.4,  119.6,   0.99501, 0, 0, 0, 0
"31", 0.42, 1,    240.464,  -30.9,   0.99166, 2,      237.9, -152.3,   0.98108, 3,    239.801,   88.9,   0.98892, 4, 0.0000399773,  175.1, 1.6486E-7
"31_1", 0.42, 1,    240.435,  -30.9,   0.99154, 2,    237.428, -152.3,   0.97914, 3,    239.745,   88.9,   0.98869, 4,   0.591919, -153.0,  0.002441
"31_2", 0.42, 1,    240.446,  -30.9,   0.99158, 2,     237.88, -152.3,     0.981, 3,    239.778,   88.9,   0.98883, 4,  0.0073484,  113.9, 0.000030304
"31_3", 0.42, 1,     240.46,  -30.9,   0.99164, 2,    237.894, -152.3,   0.98106, 3,    239.795,   88.9,    0.9889, 4, 0.00419629,  145.3, 0.000017305
"31_4", 0.42, 1,    240.433,  -30.9,   0.99153, 2,    237.886, -152.3,   0.98102, 3,    239.758,   88.9,   0.98875, 4,  0.0341029,   56.7, 0.00014064
"31_5", 0.42, 1,    240.441,  -30.9,   0.99156, 2,    237.878, -152.3,   0.98099, 3,    239.777,   88.9,   0.98882, 4, 0.00327759,   69.3, 0.000013517
"32", 0.42, 1,    241.121,  -30.5,   0.99437, 2,    240.859, -150.8,   0.99329, 3,    240.901,   89.4,   0.99346, 4, 8.07183E-6, -177.1, 3.3288E-8
"32_2", 0.42, 1,    241.121,  -30.5,   0.99437, 2,    240.859, -150.8,   0.99329, 3,    240.901,   89.4,   0.99346, 4, 8.07184E-6, -177.1, 3.3288E-8
"32_4", 0.42, 1,    241.118,  -30.5,   0.99435, 2,    240.856, -150.8,   0.99327, 3,    240.898,   89.4,   0.99345, 4, 0.00109237, -141.0, 4.5049E-6
"32_5", 0.42, 1,    241.117,  -30.5,   0.99435, 2,    240.856, -150.8,   0.99327, 3,    240.897,   89.4,   0.99344, 4, 0.00138064,   46.0, 5.6937E-6
"32_7", 0.42, 1,     241.12,  -30.5,   0.99436, 2,    240.859, -150.8,   0.99328, 3,      240.9,   89.4,   0.99346, 4, 0.000866151,  -38.0, 3.5719E-6
"32_8", 0.42, 1,    241.102,  -30.6,   0.99429, 2,    240.824, -150.8,   0.99314, 3,    240.882,   89.4,   0.99338, 4,  0.0225662, -148.1, 0.000093062
"32_10", 0.42, 1,    241.121,  -30.5,   0.99437, 2,    240.859, -150.8,   0.99329, 3,    240.901,   89.4,   0.99346, 4, 8.07183E-6, -177.1, 3.3288E-8
"32_12", 0.42, 1,    241.117,  -30.5,   0.99435, 2,    240.827, -150.8,   0.99315, 3,    240.892,   89.4,   0.99342, 4,  0.0365067, -157.4, 0.00015055
"32_13", 0.42, 1,    241.121,  -30.5,   0.99437, 2,    240.859, -150.8,   0.99329, 3,    240.901,   89.4,   0.99346, 4, 8.07184E-6, -177.1, 3.3288E-8
"33", 0.42, 1,    240.958,  -30.6,   0.99369, 2,    240.773, -150.8,   0.99293, 3,     239.22,   88.5,   0.98653, 4, 0.0000275816,   71.7, 1.1374E-7
"33_1", 0.42, 1,     240.95,  -30.6,   0.99366, 2,    240.765, -150.8,    0.9929, 3,    239.134,   88.5,   0.98617, 4,    0.10734,   90.3, 0.00044266
"33_2", 0.42, 1,    240.953,  -30.6,   0.99367, 2,    240.761, -150.8,   0.99288, 3,    239.213,   88.5,    0.9865, 4,  0.0081851, -156.4, 0.000033755
"33_4", 0.42, 1,    240.949,  -30.6,   0.99366, 2,     240.76, -150.8,   0.99288, 3,    239.206,   88.5,   0.98647, 4, 0.00524586,  139.4, 0.000021634
"34", 0.42, 1,    240.591,  -30.8,   0.99218, 2,    240.635, -150.9,   0.99236, 3,    240.089,   89.0,   0.99011, 4, 4.40924E-6,   60.3, 1.8183E-8
"34_1", 0.42, 1,    240.591,  -30.8,   0.99218, 2,    240.635, -150.9,   0.99236, 3,    240.089,   89.0,   0.99011, 4, 4.40925E-6,   60.3, 1.8183E-8
"34_2", 0.42, 1,    240.575,  -30.8,   0.99211, 2,    240.608, -150.9,   0.99225, 3,    240.073,   89.0,   0.99004, 4,  0.0150762, -145.6, 0.000062173
"34_3", 0.42, 1,    240.585,  -30.8,   0.99215, 2,    240.629, -150.9,   0.99234, 3,    240.081,   89.0,   0.99008, 4, 0.00245271,   83.0, 0.000010115
"34_4", 0.42, 1,    240.575,  -30.8,   0.99212, 2,    240.625, -150.9,   0.99232, 3,    240.077,   89.0,   0.99006, 4, 0.00665683,  -10.2, 0.000027452
"34_5", 0.42, 1,    240.579,  -30.8,   0.99213, 2,    240.622, -150.9,   0.99231, 3,    240.061,   89.0,      0.99, 4,  0.0206895,   94.4, 0.000085322
"34_8", 0.42, 1,    240.574,  -30.8,   0.99211, 2,    240.625, -150.9,   0.99232, 3,    240.061,   89.0,   0.98999, 4,  0.0215315,   70.3, 0.000088794
"35", 0.42, 1,    240.258,  -31.0,   0.99081, 2,    240.273, -151.1,   0.99087, 3,     240.14,   89.0,   0.99032, 4, 2.28928E-6, -127.7, 9.4408E-9
"35_1", 0.42, 1,    240.245,  -31.0,   0.99075, 2,    240.258, -151.1,   0.99081, 3,    240.122,   89.0,   0.99025, 4, 0.00555252,  123.5, 0.000022898
"35_2", 0.42, 1,    240.243,  -31.0,   0.99075, 2,    240.269, -151.1,   0.99085, 3,    240.135,   89.0,    0.9903, 4,  0.0136963,  -27.4, 0.000056483
"35_3", 0.42, 1,    240.252,  -31.0,   0.99078, 2,    240.266, -151.1,   0.99084, 3,    240.134,   89.0,    0.9903, 4, 0.00285885, -154.8, 0.00001179
"35_4", 0.42, 1,    240.256,  -31.0,    0.9908, 2,     240.27, -151.1,   0.99086, 3,    240.136,   89.0,   0.99031, 4, 0.00131261,  137.0, 5.4131E-6
"35_5", 0.42, 1,    240.257,  -31.0,    0.9908, 2,    240.272, -151.1,   0.99087, 3,    240.139,   89.0,   0.99032, 4, 0.000547817,  -67.5, 2.2592E-6
"35_6", 0.42, 1,    240.242,  -31.0,   0.99074, 2,    240.256, -151.1,    0.9908, 3,    240.123,   89.0,   0.99025, 4, 0.00286459,  161.3, 0.000011813
"35_7", 0.42, 1,    240.234,  -31.0,   0.99071, 2,    240.248, -151.1,   0.99077, 3,    240.121,   89.0,   0.99024, 4, 0.00747049,  -98.7, 0.000030808
"36", 0.42, 1,    240.866,  -30.7,   0.99332, 2,    240.966, -150.7,   0.99373, 3,    240.546,   89.2,   0.99199, 4, 2.26959E-6,   -4.1, 9.3596E-9
"36_3", 0.42, 1,    240.806,  -30.7,   0.99307, 2,    240.906, -150.7,   0.99348, 3,    240.481,   89.2,   0.99173, 4, 0.00640751,   81.2, 0.000026424
"36_4", 0.42, 1,     240.83,  -30.7,   0.99316, 2,    240.941, -150.7,   0.99362, 3,    240.495,   89.2,   0.99178, 4,  0.0310063,   64.7, 0.00012787
"36_5", 0.42, 1,    240.862,  -30.7,    0.9933, 2,    240.961, -150.7,   0.99371, 3,    240.539,   89.2,   0.99197, 4, 0.00370386,  111.6, 0.000015274
"36_8", 0.42, 1,    240.866,  -30.7,   0.99332, 2,    240.966, -150.7,   0.99373, 3,    240.546,   89.2,   0.99199, 4, 2.33646E-6,   -2.1, 9.6354E-9
"37", 0.42, 1,    241.135,  -30.5,   0.99442, 2,    241.086, -150.6,   0.99422, 3,    240.606,   89.3,   0.99224, 4,  5.4605E-6,   76.6, 2.2519E-8
"37_1", 0.42, 1,    241.125,  -30.5,   0.99438, 2,    241.068, -150.6,   0.99415, 3,    240.574,   89.3,   0.99211, 4,  0.0264925,  110.2, 0.00010925
"37_3", 0.42, 1,    241.132,  -30.5,   0.99441, 2,    241.083, -150.6,   0.99421, 3,    240.601,   89.3,   0.99222, 4, 0.00362176,   92.6, 0.000014936
"37_4", 0.42, 1,    241.133,  -30.5,   0.99442, 2,    241.083, -150.6,   0.99421, 3,    240.604,   89.3,   0.99223, 4, 0.00124396, -172.5,   5.13E-6
"37_6", 0.42, 1,    241.134,  -30.5,   0.99442, 2,    241.084, -150.6,   0.99421, 3,    240.601,   89.3,   0.99222, 4, 0.00562238,  100.0, 0.000023186
"37_7", 0.42, 1,    241.129,  -30.5,    0.9944, 2,    241.082, -150.6,    0.9942, 3,    240.602,   89.3,   0.99223, 4, 0.00365048,  -30.6, 0.000015054
"38", 0.42, 1,    240.076,  -31.1,   0.99006, 2,    239.929, -151.3,   0.98945, 3,    240.003,   88.9,   0.98975, 4, 3.51344E-6, -162.5, 1.4489E-8
"38_1", 0.42, 1,    240.053,  -31.1,   0.98996, 2,    239.906, -151.3,   0.98936, 3,    239.979,   88.9,   0.98966, 4, 0.00152195,   81.0, 6.2764E-6
"38_3", 0.42, 1,     240.06,  -31.1,   0.98999, 2,    239.921, -151.3,   0.98942, 3,    239.994,   88.9,   0.98972, 4,  0.0103908,  -26.9, 0.000042851
"38_4", 0.42, 1,    240.061,  -31.1,      0.99, 2,    239.918, -151.3,   0.98941, 3,    239.991,   88.9,    0.9897, 4, 0.00450592,  -16.8, 0.000018582
"38_5", 0.42, 1,     240.07,  -31.1,   0.99003, 2,    239.926, -151.3,   0.98944, 3,    239.996,   88.9,   0.98973, 4, 0.00380076,   49.2, 0.000015674
"38_6", 0.42, 1,    240.065,  -31.1,   0.99001, 2,    239.903, -151.3,   0.98934, 3,    239.991,   88.9,   0.98971, 4,  0.0206373, -150.8, 0.000085107
"38_7", 0.42, 1,    240.064,  -31.1,   0.99001, 2,    239.916, -151.3,    0.9894, 3,     239.99,   88.9,    0.9897, 4, 0.00172852,  170.0, 7.1283E-6
"38_8", 0.42, 1,    240.071,  -31.1,   0.99004, 2,    239.925, -151.3,   0.98944, 3,    239.999,   88.9,   0.98974, 4, 0.00146465,  -39.4, 6.0401E-6
"38_11", 0.42, 1,    240.056,  -31.1,   0.98997, 2,    239.915, -151.3,   0.98939, 3,    239.993,   88.9,   0.98971, 4,  0.0121107,  -56.9, 0.000049944
"38_12", 0.42, 1,    240.076,  -31.1,   0.99006, 2,    239.929, -151.3,   0.98945, 3,    240.003,   88.9,   0.98975, 4, 3.51346E-6, -162.5, 1.4489E-8
"39", 0.42, 1,    240.746,  -30.7,   0.99282, 2,     240.97, -150.7,   0.99374, 3,    240.697,   89.3,   0.99262, 4, 3.24097E-6,  -44.5, 1.3366E-8
"39_1", 0.42, 1,    240.727,  -30.7,   0.99274, 2,    240.959, -150.7,    0.9937, 3,     240.68,   89.3,   0.99255, 4,  0.0107911,   22.0, 0.000044502
"39_2", 0.42, 1,     240.73,  -30.7,   0.99275, 2,    240.955, -150.7,   0.99368, 3,    240.684,   89.3,   0.99257, 4, 0.00447576,  -74.0, 0.000018458
"39_5", 0.42, 1,    240.744,  -30.7,   0.99281, 2,    240.967, -150.7,   0.99373, 3,    240.695,   89.3,   0.99261, 4, 4.25689E-6,  -30.4, 1.7555E-8
"39_7", 0.42, 1,    240.736,  -30.7,   0.99278, 2,    240.963, -150.7,   0.99371, 3,     240.69,   89.3,   0.99259, 4, 0.00471009,  -21.2, 0.000019424
"39_8", 0.42, 1,    240.738,  -30.7,   0.99279, 2,    240.967, -150.7,   0.99373, 3,    240.695,   89.3,   0.99261, 4, 0.00847228,  -32.2, 0.000034939
"40", 0.42, 1,    240.851,  -30.7,   0.99325, 2,    240.765, -150.8,    0.9929, 3,    240.569,   89.2,   0.99209, 4, 1.63796E-6,  139.8, 6.7548E-9
"40_1", 0.42, 1,    240.851,  -30.7,   0.99325, 2,    240.762, -150.8,   0.99289, 3,    240.565,   89.2,   0.99207, 4, 0.00456213,  140.0, 0.000018814
"40_2", 0.42, 1,    240.841,  -30.7,   0.99321, 2,    240.756, -150.8,   0.99286, 3,    240.562,   89.2,   0.99206, 4, 0.00356696,  -65.3, 0.00001471
"40_3", 0.42, 1,    240.844,  -30.7,   0.99323, 2,    240.758, -150.8,   0.99287, 3,    240.562,   89.2,   0.99206, 4, 0.000478528,  -57.1, 1.9734E-6
"40_5", 0.42, 1,    240.846,  -30.7,   0.99323, 2,    240.755, -150.8,   0.99286, 3,    240.563,   89.2,   0.99206, 4, 0.00612087, -158.2, 0.000025242
"40_8", 0.42, 1,    240.831,  -30.7,   0.99317, 2,    240.746, -150.8,   0.99282, 3,    240.542,   89.2,   0.99198, 4, 0.00977157,   83.3, 0.000040297
"41", 0.42, 1,    241.105,  -30.6,    0.9943, 2,    241.164, -150.6,   0.99454, 3,    240.821,   89.4,   0.99313, 4, 1.70013E-6,   47.8, 7.0112E-9
"41_3", 0.42, 1,    241.099,  -30.6,   0.99428, 2,     241.16, -150.6,   0.99453, 3,    240.817,   89.4,   0.99311, 4,   0.001653,  -41.0, 6.8169E-6
"41_6", 0.42, 1,    241.092,  -30.6,   0.99425, 2,    241.152, -150.6,    0.9945, 3,    240.803,   89.4,   0.99305, 4, 0.00811937,   80.6, 0.000033484
"41_7", 0.42, 1,    241.105,  -30.6,    0.9943, 2,    241.164, -150.6,   0.99454, 3,    240.821,   89.4,   0.99313, 4, 1.70013E-6,   47.8, 7.0112E-9
"41_8", 0.42, 1,    241.102,  -30.6,   0.99429, 2,     241.16, -150.6,   0.99453, 3,    240.818,   89.4,   0.99312, 4, 0.00112323, -164.9, 4.6321E-6
"42", 0.42, 1,    240.148,  -31.1,   0.99035, 2,    240.218, -151.1,   0.99064, 3,    240.017,   88.9,   0.98981, 4, 1.24038E-6,  -80.7, 5.1153E-9
"42_3", 0.42, 1,    240.137,  -31.1,   0.99031, 2,    240.203, -151.1,   0.99058, 3,    240.006,   88.9,   0.98977, 4, 0.00493279, -156.3, 0.000020342
"42_5", 0.42, 1,    240.138,  -31.1,   0.99031, 2,    240.208, -151.1,    0.9906, 3,    240.008,   88.9,   0.98978, 4, 0.00114383, -108.0, 4.7171E-6
"42_6", 0.42, 1,    240.145,  -31.1,   0.99034, 2,    240.213, -151.1,   0.99062, 3,    240.012,   88.9,   0.98979, 4, 0.00319265,  156.7, 0.000013166
"42_7", 0.42, 1,    240.148,  -31.1,   0.99035, 2,    240.218, -151.1,   0.99064, 3,    240.017,   88.9,   0.98981, 4, 1.24038E-6,  -80.7, 5.1153E-9
"42_9", 0.42, 1,    240.124,  -31.1,   0.99026, 2,      240.2, -151.1,   0.99057, 3,    239.995,   88.9,   0.98972, 4, 0.00677841,   19.6, 0.000027954
"42_10", 0.42, 1,    240.108,  -31.1,   0.99019, 2,     240.19, -151.1,   0.99053, 3,        240,   88.9,   0.98974, 4,  0.0264482,  -58.3, 0.00010907
"42_11", 0.42, 1,    240.128,  -31.1,   0.99027, 2,    240.195, -151.1,   0.99055, 3,    239.988,   88.9,   0.98969, 4,  0.0121158,  107.1, 0.000049965
"42_12", 0.42, 1,    240.135,  -31.1,    0.9903, 2,    240.203, -151.1,   0.99058, 3,    239.999,   88.9,   0.98974, 4,  0.0065334,  119.2, 0.000026943
"43", 0.42, 1,    240.965,  -30.6,   0.99372, 2,    240.903, -150.8,   0.99347, 3,    238.256,   88.0,   0.98255, 4, 0.0000475622,   65.5, 1.9614E-7
"43_1", 0.42, 1,    240.954,  -30.6,   0.99368, 2,    240.888, -150.8,   0.99341, 3,    238.245,   88.0,    0.9825, 4, 0.00404416, -137.2, 0.000016678
"43_2", 0.42, 1,    240.952,  -30.6,   0.99367, 2,    240.877, -150.8,   0.99336, 3,    238.213,   88.0,   0.98237, 4,   0.035007,  113.7, 0.00014437
"43_4", 0.42, 1,    240.935,  -30.6,    0.9936, 2,    240.886, -150.8,    0.9934, 3,    238.241,   88.0,   0.98249, 4,  0.0211079,  -34.1, 0.000087048
"43_5", 0.42, 1,    240.932,  -30.6,   0.99359, 2,    240.891, -150.8,   0.99342, 3,     238.24,   88.0,   0.98248, 4,  0.0271467,  -18.2, 0.00011195
"43_6", 0.42, 1,    240.965,  -30.6,   0.99372, 2,    240.903, -150.8,   0.99347, 3,    238.256,   88.0,   0.98255, 4, 0.0000475622,   65.5, 1.9614E-7
"43_7", 0.42, 1,    240.965,  -30.6,   0.99372, 2,    240.903, -150.8,   0.99347, 3,    238.256,   88.0,   0.98255, 4, 0.0000475622,   65.5, 1.9614E-7
"43_9", 0.42, 1,     240.88,  -30.6,   0.99337, 2,     240.74, -150.8,    0.9928, 3,    237.074,   88.0,   0.97768, 4,    1.46338,   93.5, 0.0060349
"44", 0.42, 1,     240.59,  -30.8,   0.99218, 2,    240.637, -150.9,   0.99237, 3,    240.466,   89.2,   0.99167, 4, 1.96444E-6, -124.6, 8.1012E-9
"44_2", 0.42, 1,    240.565,  -30.8,   0.99207, 2,    240.616, -150.9,   0.99228, 3,    240.445,   89.2,   0.99158, 4,  0.0053343,  -14.3, 0.000021998
"44_3", 0.42, 1,    240.585,  -30.8,   0.99216, 2,    240.626, -150.9,   0.99232, 3,     240.46,   89.2,   0.99164, 4, 0.00759572, -154.2, 0.000031324
"44_4", 0.42, 1,    240.584,  -30.8,   0.99215, 2,    240.632, -150.9,   0.99235, 3,    240.459,   89.2,   0.99164, 4, 0.00277607,   70.7, 0.000011448
"44_5", 0.42, 1,    240.577,  -30.8,   0.99212, 2,     240.63, -150.9,   0.99234, 3,    240.461,   89.2,   0.99164, 4, 0.00940243,  -34.3, 0.000038775
"44_6", 0.42, 1,    240.588,  -30.8,   0.99217, 2,    240.628, -150.9,   0.99233, 3,    240.459,   89.2,   0.99164, 4, 0.00856782,  169.5, 0.000035333
"44_7", 0.42, 1,    240.572,  -30.8,    0.9921, 2,    240.623, -150.9,   0.99231, 3,    240.452,   89.2,   0.99161, 4, 0.00469046,  -25.3, 0.000019343
"45", 0.42, 1,    240.797,  -30.7,   0.99303, 2,    241.037, -150.7,   0.99402, 3,    240.763,   89.3,   0.99289, 4, 3.49663E-6,  -44.7,  1.442E-8
"45_1", 0.42, 1,    240.774,  -30.7,   0.99294, 2,    241.013, -150.7,   0.99392, 3,    240.739,   89.3,   0.99279, 4, 0.00185839,  146.6, 7.6639E-6
"45_2", 0.42, 1,    240.751,  -30.7,   0.99284, 2,    241.004, -150.7,   0.99388, 3,    240.716,   89.3,   0.99269, 4,  0.0187256,   38.1, 0.000077223
"45_3", 0.42, 1,    240.753,  -30.7,   0.99285, 2,    241.033, -150.7,     0.994, 3,    240.757,   89.3,   0.99287, 4,  0.0538166,  -26.8, 0.00022194
"45_5", 0.42, 1,    240.797,  -30.7,   0.99303, 2,    241.037, -150.7,   0.99402, 3,    240.763,   89.3,   0.99289, 4, 3.49665E-6,  -44.7,  1.442E-8
"45_7", 0.42, 1,    240.788,  -30.7,   0.99299, 2,    241.028, -150.7,   0.99398, 3,    240.755,   89.3,   0.99286, 4, 7.71082E-6,  -31.4, 3.1799E-8
"45_8", 0.42, 1,    240.758,  -30.7,   0.99287, 2,    240.999, -150.7,   0.99386, 3,    240.734,   89.3,   0.99277, 4,  0.0121585,  -84.0, 0.000050141
"46", 0.42, 1,    241.062,  -30.6,   0.99412, 2,    240.933, -150.7,   0.99359, 3,    240.816,   89.4,   0.99311, 4, 2.19464E-6,  147.7, 9.0505E-9
"46_1", 0.42, 1,    241.042,  -30.6,   0.99404, 2,    240.915, -150.7,   0.99352, 3,    240.801,   89.4,   0.99305, 4,   0.005981,  -59.2, 0.000024665
"46_2", 0.42, 1,    241.049,  -30.6,   0.99407, 2,    240.916, -150.7,   0.99352, 3,    240.804,   89.4,   0.99306, 4, 0.00633395, -140.3, 0.000026121
"46_3", 0.42, 1,     241.06,  -30.6,   0.99412, 2,     240.93, -150.7,   0.99358, 3,    240.801,   89.4,   0.99305, 4,  0.0172891,   98.4, 0.000071299
"46_4", 0.42, 1,    241.025,  -30.6,   0.99397, 2,    240.865, -150.7,   0.99331, 3,    240.782,   89.4,   0.99297, 4,  0.0447236, -143.6, 0.00018444
"46_7", 0.42, 1,    241.052,  -30.6,   0.99408, 2,    240.918, -150.7,   0.99353, 3,    240.801,   89.4,   0.99305, 4, 0.00801216,  151.8, 0.000033042
"46_8", 0.42, 1,    241.049,  -30.6,   0.99407, 2,    240.916, -150.7,   0.99352, 3,      240.8,   89.4,   0.99304, 4, 0.00507949,  174.0, 0.000020947
"47", 0.42, 1,    241.074,  -30.6,   0.99417, 2,    241.099, -150.6,   0.99427, 3,    240.946,   89.4,   0.99365, 4, 2.65593E-6, -121.9, 1.0953E-8
"47_1", 0.42, 1,    241.063,  -30.6,   0.99413, 2,    241.079, -150.6,   0.99419, 3,    240.932,   89.4,   0.99359, 4,  0.0105291, -176.5, 0.000043421
"47_3", 0.42, 1,    241.068,  -30.6,   0.99415, 2,    241.094, -150.6,   0.99425, 3,    240.941,   89.4,   0.99362, 4, 0.000504027,    2.2, 2.0786E-6
"47_4", 0.42, 1,    241.073,  -30.6,   0.99417, 2,    241.097, -150.6,   0.99427, 3,    240.946,   89.4,   0.99364, 4, 0.00151351, -123.0, 6.2416E-6
"47_5", 0.42, 1,     241.07,  -30.6,   0.99416, 2,    241.099, -150.6,   0.99427, 3,    240.946,   89.4,   0.99365, 4, 0.00450996,  -28.5, 0.000018599
"47_8", 0.42, 1,    241.074,  -30.6,   0.99417, 2,    241.099, -150.6,   0.99427, 3,    240.946,   89.4,   0.99365, 4, 0.000407804, -148.5, 1.6818E-6
"48", 0.42, 1,    241.104,  -30.6,    0.9943, 2,    241.118, -150.6,   0.99435, 3,    240.873,   89.4,   0.99334, 4, 3.03247E-7,  119.2, 1.2506E-9
"48_3", 0.42, 1,    241.099,  -30.6,   0.99428, 2,    241.115, -150.6,   0.99434, 3,     240.87,   89.4,   0.99333, 4,  0.0024379,  -25.5, 0.000010054
"48_4", 0.42, 1,    241.102,  -30.6,   0.99429, 2,    241.115, -150.6,   0.99434, 3,    240.871,   89.4,   0.99334, 4, 0.00183096, -140.3, 7.5508E-6
"48_5", 0.42, 1,      241.1,  -30.6,   0.99428, 2,    241.112, -150.6,   0.99433, 3,    240.865,   89.4,   0.99331, 4,  0.0045998,  111.5, 0.000018969
"48_6", 0.42, 1,    241.104,  -30.6,    0.9943, 2,    241.118, -150.6,   0.99435, 3,    240.873,   89.4,   0.99334, 4, 3.03247E-7,  119.2, 1.2506E-9
"48_7", 0.42, 1,    241.104,  -30.6,    0.9943, 2,    241.118, -150.6,   0.99435, 3,    240.873,   89.4,   0.99334, 4, 3.03248E-7,  119.2, 1.2506E-9
"48_8", 0.42, 1,    241.104,  -30.6,    0.9943, 2,    241.118, -150.6,   0.99435, 3,    240.873,   89.4,   0.99334, 4, 3.03248E-7,  119.2, 1.2506E-9
"49", 0.42, 1,    241.112,  -30.6,   0.99433, 2,    241.108, -150.6,   0.99431, 3,    240.903,   89.4,   0.99347, 4, 6.00677E-7, -173.8, 2.4772E-9
"49_5", 0.42, 1,    241.101,  -30.6,   0.99428, 2,    241.097, -150.6,   0.99427, 3,    240.894,   89.4,   0.99343, 4, 0.00182613, -121.2, 7.5308E-6
"49_7", 0.42, 1,    241.111,  -30.6,   0.99433, 2,    241.107, -150.6,   0.99431, 3,    240.903,   89.4,   0.99347, 4, 0.000413953, -158.6, 1.7071E-6
"49_8", 0.42, 1,    241.105,  -30.6,    0.9943, 2,    241.102, -150.6,   0.99429, 3,    240.896,   89.4,   0.99344, 4, 0.000802485,  128.2, 3.3094E-6
"50", 0.42, 1,    241.005,  -30.6,   0.99389, 2,    241.039, -150.7,   0.99403, 3,    240.789,   89.4,     0.993, 4, 1.56342E-7,  110.0, 6.4475E-10
"50_1", 0.42, 1,    240.987,  -30.6,   0.99381, 2,    241.022, -150.7,   0.99396, 3,    240.773,   89.3,   0.99293, 4, 0.00245984,  -69.7, 0.000010144
"50_2", 0.42, 1,    241.004,  -30.6,   0.99388, 2,    241.037, -150.7,   0.99402, 3,    240.788,   89.4,   0.99299, 4, 0.00259404, -147.6, 0.000010698
"50_3", 0.42, 1,    241.001,  -30.6,   0.99387, 2,    241.039, -150.7,   0.99403, 3,    240.786,   89.4,   0.99299, 4, 0.00401176,   16.0, 0.000016544
